Time [s], Analyzer Name, Decoded Protocol Result
2.677511046000000,TX,0xA0
2.677597894000000,TX,0x07
2.677684742000000,TX,0x0B
2.677771590000000,TX,0x02
2.677858440000000,TX,0x04
2.677945288000000,TX,0x00
2.678032136000000,TX,0x00
2.678118984000000,TX,0x00
2.678205832000000,TX,0x00
2.678292682000000,TX,0x03
2.678379530000000,TX,0x07
2.678466378000000,TX,0xA0
2.678553226000000,TX,0x07
2.678640074000000,TX,0x0B
2.678726924000000,TX,0x02
2.678813772000000,TX,0x03
2.678900620000000,TX,0x00
2.678987468000000,TX,0x00
2.679074316000000,TX,0x00
2.679161166000000,TX,0x00
2.679248014000000,TX,0x04
2.679334862000000,TX,0x07
2.679421710000000,TX,0xA0
2.679508558000000,TX,0x07
2.679595408000000,TX,0x0B
2.679682256000000,TX,0x02
2.679769104000000,TX,0x00
2.679855952000000,TX,0x00
2.679942800000000,TX,0x01
2.680029648000000,TX,0x00
2.680116498000000,TX,0x00
2.680203346000000,TX,0xFF
2.680290194000000,TX,0x0B
2.680377042000000,TX,0xA0
2.680463892000000,TX,0x07
2.680550740000000,TX,0x0B
2.680637588000000,TX,0x02
2.680724436000000,TX,0x1F
2.680811284000000,TX,0x10
2.680898132000000,TX,0x00
2.680984982000000,TX,0x00
2.681071830000000,TX,0x00
2.681158678000000,TX,0xFF
2.681245526000000,TX,0x07
2.681332374000000,TX,0xA0
2.681419224000000,TX,0x0E
2.681506072000000,TX,0x01
2.681592920000000,TX,0x00
2.681679768000000,TX,0x02
2.681766616000000,TX,0x00
11.894990868000001,RX,0x00 (framing error)
12.407032284000000,RX,0x20
12.407127618000001,RX,0x01
12.407222952000000,RX,0x01
12.407318286000001,RX,0x01
12.407413620000000,RX,0x00
13.170033102000000,RX,0x20
13.170128436000001,RX,0x17
13.170223770000000,RX,0x03
13.170319104000001,RX,0x07
13.170414438000000,RX,0x00
13.170509772000001,RX,0x15
13.170605106000000,RX,0x02
13.170700439999999,RX,0x01
13.170795774000000,RX,0x06
13.170891107999999,RX,0x11
13.170986442000000,RX,0x07
13.171081775999999,RX,0xE4
13.171177110000000,RX,0xBA
13.171272444000000,RX,0x94
13.171367778000000,RX,0xC3
13.171463112000000,RX,0xC9
13.171558446000001,RX,0xB7
13.171653780000000,RX,0xCD
13.171749114000001,RX,0xB0
13.171844446000000,RX,0x9B
13.171939780000001,RX,0x48
13.172035114000000,RX,0x7A
13.172130448000001,RX,0x43
13.172225782000000,RX,0x8A
13.172329784000000,RX,0xE5
13.172425118000000,RX,0x5A
13.172520452000001,RX,0x19
13.174643798000000,RX,0x20
13.174739131999999,RX,0x21
13.174834466000000,RX,0x03
13.174929799999999,RX,0x07
13.175025134000000,RX,0x01
13.175120467999999,RX,0x1F
13.175215802000000,RX,0x1E
13.175311135999999,RX,0xFF
13.175406470000000,RX,0x44
13.175501804000000,RX,0x37
13.175597138000001,RX,0xE4
13.175692472000000,RX,0x01
13.175787804000000,RX,0xFF
13.175883140000000,RX,0xFF
13.175978474000001,RX,0xFF
13.176082473999999,RX,0xFF
13.176177808000000,RX,0xFF
13.121989599999999,TX,0xFF
13.122093820000000,TX,0x0B
13.122198038000001,TX,0xA0
13.122302255999999,TX,0x07
13.122406474000000,TX,0x0B
13.122510692000001,TX,0x02
13.122614909999999,TX,0x1F
13.122719128000000,TX,0x10
13.122823346000001,TX,0x00
13.122927563999999,TX,0x00
13.123031782000000,TX,0x00
13.123136000000001,TX,0xFF
13.123240217999999,TX,0x07
13.123344436000000,TX,0xA0
13.123448654000001,TX,0x0E
13.123552871999999,TX,0x01
13.123657090000000,TX,0x00
13.123761308000001,TX,0x02
13.123865525999999,TX,0x00
13.123969744000000,TX,0x04
13.124073962000001,TX,0x00
13.124178179999999,TX,0x01
13.124282398000000,TX,0x00
13.124386616000001,TX,0x5A
13.124490833999999,TX,0x09
13.124595052000000,TX,0x00
13.124699270000001,TX,0x00
13.124803488000000,TX,0x00
13.124907706000000,TX,0x00
13.125011924000001,TX,0x01
13.125116142000000,TX,0x00
13.125220360000000,TX,0xA0
13.125324578000001,TX,0x00
13.125428796000000,TX,0x01
13.125533014000000,TX,0x04
13.170033102000000,RX,0x20
13.170128436000001,RX,0x17
13.170223770000000,RX,0x03
13.170319104000001,RX,0x07
13.170414438000000,RX,0x00
13.170509772000001,RX,0x15
13.170605106000000,RX,0x02
13.170700439999999,RX,0x01
13.170795774000000,RX,0x06
13.170891107999999,RX,0x11
13.170986442000000,RX,0x07
13.171081775999999,RX,0xE4
13.171177110000000,RX,0xBA
13.171272444000000,RX,0x94
13.171367778000000,RX,0xC3
13.171463112000000,RX,0xC9
13.171558446000001,RX,0xB7
13.171653780000000,RX,0xCD
13.171749114000001,RX,0xB0
13.171844446000000,RX,0x9B
13.171939780000001,RX,0x48
13.172035114000000,RX,0x7A
13.172130448000001,RX,0x43
13.172225782000000,RX,0x8A
13.172329784000000,RX,0xE5
13.172425118000000,RX,0x5A
13.172520452000001,RX,0x19
13.172733996000000,TX,0x20
13.172838214000000,TX,0x02
13.172942431999999,TX,0x03
13.173046650000000,TX,0x07
13.173150868000000,TX,0x00
13.173255085999999,TX,0x00
13.174643798000000,RX,0x20
13.174739131999999,RX,0x21
13.174834466000000,RX,0x03
13.174929799999999,RX,0x07
13.175025134000000,RX,0x01
13.175120467999999,RX,0x1F
13.175215802000000,RX,0x1E
13.175311135999999,RX,0xFF
13.175406470000000,RX,0x44
13.175501804000000,RX,0x37
13.175597138000001,RX,0xE4
13.175692472000000,RX,0x01
13.175787804000000,RX,0xFF
13.175883140000000,RX,0xFF
13.175978474000001,RX,0xFF
13.176082473999999,RX,0xFF
13.176177808000000,RX,0xFF
13.176273141999999,RX,0xFF
13.176368476000000,RX,0x10
13.176463810000000,RX,0x20
13.176559144000001,RX,0x20
13.176654478000000,RX,0x20
13.176749812000001,RX,0x20
13.176845146000000,RX,0x20
13.176940480000001,RX,0x53
13.177035814000000,RX,0x49
13.177131146000001,RX,0x4C
13.177226482000000,RX,0x49
13.177321814000001,RX,0x43
13.177417148000000,RX,0x4F
13.177512481999999,RX,0x4E
13.177607816000000,RX,0x20
13.177703149999999,RX,0x4C
13.177798484000000,RX,0x41
13.177893817999999,RX,0x42
13.177989152000000,RX,0x20
13.178084485999999,RX,0x20
13.178299087999999,TX,0x20
13.178403306000000,TX,0x02
13.178507524000000,TX,0x03
13.178611741999999,TX,0x07
13.178715960000000,TX,0x00
13.178820178000000,TX,0x00
13.179003160000001,RX,0x20
13.179098492000000,RX,0x05
13.179193826000001,RX,0x03
13.179289160000000,RX,0x04
13.179384494000001,RX,0x00
13.179479828000000,RX,0x08
13.179575162000001,RX,0x00
13.179670496000000,RX,0x08
13.179765829999999,RX,0x07
13.179956888000000,TX,0x20
13.180061106000000,TX,0x02
13.180165324000001,TX,0x03
13.180269542000000,TX,0x04
13.180373760000000,TX,0x00
13.180477978000001,TX,0x00
13.180658502000000,RX,0x20
13.180753835999999,RX,0x02
13.180849170000000,RX,0x03
13.180944503999999,RX,0x01
13.181039838000000,RX,0x04
13.181135171999999,RX,0x02
13.181336462000001,TX,0x20
13.181440680000000,TX,0x02
13.181544898000000,TX,0x03
13.181649116000001,TX,0x01
13.181753334000000,TX,0x00
13.181857552000000,TX,0x00
13.182036512000000,RX,0x20
13.182131846000001,RX,0x00
13.182235845999999,RX,0x01
13.182331180000000,RX,0x03
13.182553616000000,TX,0x20
13.182657834000000,TX,0x06
13.182762051999999,TX,0x01
13.182866270000000,TX,0x03
13.182970488000000,TX,0xAE
13.183074705999999,TX,0x71
13.183178924000000,TX,0xAE
13.183283144000001,TX,0x57
13.183387361999999,TX,0xB4
13.183491580000000,TX,0x14
13.183769856000000,RX,0x20
13.183865190000001,RX,0x17
13.183960524000000,RX,0x03
13.184055858000001,RX,0x07
13.184151192000000,RX,0x00
13.184246526000001,RX,0x15
13.184341860000000,RX,0x02
13.184437193999999,RX,0x01
13.184532528000000,RX,0x06
13.184627860000001,RX,0x11
13.184723194000000,RX,0x07
13.184818527999999,RX,0xE4
13.184913862000000,RX,0xBA
13.185009195999999,RX,0x94
13.185104530000000,RX,0xC3
13.185199863999999,RX,0xC9
13.185303866000000,RX,0xB7
13.185399200000001,RX,0xCD
13.185494534000000,RX,0xB0
13.185589866000001,RX,0x9B
13.185685200000000,RX,0x48
13.185780533999999,RX,0x7A
13.185875868000000,RX,0x43
13.185979870000001,RX,0x8A
13.186075204000000,RX,0xE5
13.186170538000001,RX,0x5A
13.186265872000000,RX,0x19
13.186479501999999,TX,0x20
13.186583720000000,TX,0x02
13.186687938000000,TX,0x03
13.186792155999999,TX,0x07
13.186896374000000,TX,0x00
13.187000592000000,TX,0x00
13.188397884000000,RX,0x20
13.188493218000000,RX,0x21
13.188588552000001,RX,0x03
13.188683886000000,RX,0x07
13.188779220000001,RX,0x01
13.188874554000000,RX,0x1F
13.188969888000001,RX,0x1E
13.189065222000000,RX,0xFF
13.189160555999999,RX,0x44
13.189255890000000,RX,0x37
13.189351223999999,RX,0xE4
13.189446558000000,RX,0x01
13.189541891999999,RX,0x14
13.189637226000000,RX,0xB4
13.189741226000001,RX,0x57
13.189836560000000,RX,0xAE
13.189931894000001,RX,0x71
13.190027228000000,RX,0xAE
13.190122562000001,RX,0x10
13.190217896000000,RX,0x20
13.190313229999999,RX,0x20
13.190417230000000,RX,0x20
13.190512564000000,RX,0x20
13.190607898000000,RX,0x20
13.190703232000001,RX,0x53
13.190798566000000,RX,0x49
13.190893900000001,RX,0x4C
13.190989234000000,RX,0x49
13.191084568000001,RX,0x43
13.191179902000000,RX,0x4F
13.191275235999999,RX,0x4E
13.191370570000000,RX,0x20
13.191465903999999,RX,0x4C
13.191561238000000,RX,0x41
13.191656571999999,RX,0x42
13.191751906000000,RX,0x20
13.191847240000000,RX,0x20
13.192061834000000,TX,0x20
13.192166051999999,TX,0x02
13.192270270000000,TX,0x03
13.192374488000000,TX,0x07
13.192461335999999,TX,0x00
13.192565554000000,TX,0x00
13.192748578000000,RX,0x20
13.192843912000001,RX,0x05
13.192939246000000,RX,0x03
13.193034580000001,RX,0x04
13.193129914000000,RX,0x00
13.193225247999999,RX,0x08
13.193320582000000,RX,0x00
13.193415915999999,RX,0x08
13.193511250000000,RX,0x07
13.193702448000000,TX,0x20
13.193806666000000,TX,0x02
13.193910883999999,TX,0x03
13.194015102000000,TX,0x04
13.194119320000000,TX,0x00
13.194223537999999,TX,0x00
13.194403921999999,RX,0x20
13.194499256000000,RX,0x02
13.194594589999999,RX,0x03
13.194689924000000,RX,0x01
13.194785258000000,RX,0x04
13.194880592000001,RX,0x02
13.195063687999999,TX,0x20
13.195167906000000,TX,0x02
13.195272124000001,TX,0x03
13.195376341999999,TX,0x01
13.195480560000000,TX,0x00
13.195584778000001,TX,0x00
